
T18D0 001:430 SEGGER J-Link V4.24b Log File (0000ms, 1430ms total)
T18D0 001:430 DLL Compiled: Feb 22 2011 20:47:17 (0000ms, 1430ms total)
T18D0 001:430 Logging started @ 2011-09-17 15:33 (0000ms, 1430ms total)
T18D0 001:430 JLINK_SetWarnOutHandler(...) (0000ms, 1430ms total)
T18D0 001:430 JLINK_OpenEx(...)
Firmware: J-Link ARM V8 compiled Jan 31 2011 18:34:52
Hardware: V8.00
S/N: 805306163
Feature(s): RDI,FlashDL,FlashBP,JFlash,GDBFull  returns O.K. (0732ms, 1430ms total)
T18D0 002:162 JLINK_SetErrorOutHandler(...) (0000ms, 2162ms total)
T18D0 002:162 JLINK_ExecCommand("ProjectFile = "E:\GoogleSVN\uCOS-III_Template\JLinkSettings.ini"", ...)  returns 0x00 (0000ms, 2162ms total)
T18D0 002:163 JLINK_ExecCommand("DisableConnectionTimeout", ...)  returns 0x00 (0000ms, 2162ms total)
T18D0 002:164 JLINK_TIF_Select(JLINKARM_TIF_JTAG)  returns 0x00 (0000ms, 2162ms total)
T18D0 002:165 JLINK_SetSpeed(2000) (0000ms, 2162ms total)
T18D0 002:166 JLINK_GetHardwareVersion()  returns 0x13880 (0000ms, 2162ms total)
T18D0 002:166 JLINK_GetDLLVersion()  returns 42402 (0000ms, 2162ms total)
T18D0 002:166 JLINK_GetFirmwareString(...) (0000ms, 2162ms total)
T18D0 002:170 JLINK_GetDLLVersion()  returns 42402 (0000ms, 2162ms total)
T18D0 002:170 JLINK_GetCompileDateTime() (0000ms, 2162ms total)
T18D0 002:171 JLINK_GetFirmwareString(...) (0000ms, 2162ms total)
T18D0 002:173 JLINK_GetHardwareVersion()  returns 0x13880 (0000ms, 2162ms total)
T18D0 002:174 JLINK_GetIdData(...) >0x2F8 JTAG>TotalIRLen = 9, IRPrint = 0x0011 >0x30 JTAG> >0x210 JTAG> >0x80 JTAG> >0x40 JTAG> >0x40 JTAG> >0x50 JTAG> >0x40 JTAG> >0x40 JTAG> >0x40 JTAG> >0x50 JTAG> >0x40 JTAG> >0x40 JTAG> >0x30 JTAG> >0x40 JTAG> >0x50 JTAG> >0x40 JTAG> >0x38 JTAG> >0x80 JTAG> >0x40 JTAG> >0x40 JTAG> >0x50 JTAG> >0x40 JTAG> >0x40 JTAG> >0x40 JTAG> >0x50 JTAG> >0x40 JTAG> >0x40 JTAG> >0x30 JTAG> >0x40 JTAG> >0x40 JTAG> >0x40 JTAG> >0x40 JTAG> >0x40 JTAG> >0x50 JTAG> >0x40 JTAG>
 >0x80 JTAG> >0x40 JTAG> >0x30 JTAG> >0x40 JTAG> >0x40 JTAG> >0x40 JTAG> >0x40 JTAG> >0x40 JTAG> >0x50 JTAG> >0x40 JTAG> >0x80 JTAG> >0x40 JTAG> >0x30 JTAG> >0x40 JTAG> >0x50 JTAG> >0x40 JTAG> >0x40 JTAG> >0x40 JTAG> >0x30 JTAG> >0x40 JTAG> >0x50 JTAG> >0x40 JTAG>Found Cortex-M3 r1p1, Little endian. >0x50 JTAG> >0x50 JTAG> >0x40 JTAG> >0x40 JTAG> >0x30 JTAG> >0x30 JTAG> >0x50 JTAG> >0x40 JTAG> >0x80 JTAG> >0x40 JTAG> >0x30 JTAG> >0x40 JTAG> >0x50 JTAG> >0x40 JTAG> >0x40 JTAG> >0x40 JTAG> >0x30 JTAG>
 >0x40 JTAG> >0x50 JTAG> >0x40 JTAG>TPIU fitted. >0x40 JTAG> >0x40 JTAG> >0x30 JTAG> >0x40 JTAG> >0x50 JTAG> >0x40 JTAG>ETM fitted. >0x40 JTAG> >0x40 JTAG> >0x30 JTAG> >0x40 JTAG> >0x50 JTAG> >0x40 JTAG> >0x40 JTAG> >0x40 JTAG> >0x30 JTAG> >0x40 JTAG> >0x50 JTAG> >0x40 JTAG>  FPUnit: 6 code (BP) slots and 2 literal slots >0x40 JTAG> >0x40 JTAG> >0x30 JTAG> >0x40 JTAG> >0x50 JTAG> >0x40 JTAG> ScanLen=9 NumDevices=2 aId[0]=0x3BA00477 aIrRead[0]=0 aScanLen[0]=0 aScanRead[0]=0 (0050ms, 2162ms total)
T18D0 002:224 JLINK_JTAG_GetDeviceID(DeviceIndex = 0)  returns 0x3BA00477 (0000ms, 2212ms total)
T18D0 002:224 JLINK_JTAG_GetDeviceInfo(DeviceIndex = 0)  returns 0x00 (0000ms, 2212ms total)
T18D0 002:224 JLINK_JTAG_GetDeviceID(DeviceIndex = 1)  returns 0x6414041 (0000ms, 2212ms total)
T18D0 002:224 JLINK_JTAG_GetDeviceInfo(DeviceIndex = 1)  returns 0x00 (0000ms, 2212ms total)
T18D0 002:224 JLINK_GetDebugInfo(0x100) -- Value=0xE00FF003  returns 0x00 (0000ms, 2212ms total)
T18D0 002:225 JLINK_ReadMem (0xE00FFFF0, 0x0010 Bytes, ...) -- CPU is running -- CPU_ReadMem(16 bytes @ 0xE00FFFF0) -- Data:  0D 00 00 00 10 00 00 00 05 00 00 00 B1 00 00 00  returns 0x00 (0004ms, 2212ms total)
T18D0 002:229 JLINK_ReadMem (0xE00FFFD0, 0x0020 Bytes, ...) -- CPU is running -- CPU_ReadMem(32 bytes @ 0xE00FFFD0) -- Data:  00 00 00 00 00 00 00 00 00 00 00 00 00 00 00 00 ...  returns 0x00 (0001ms, 2216ms total)
T18D0 002:230 JLINK_ReadMem (0xE00FF000, 0x0018 Bytes, ...) -- CPU is running -- CPU_ReadMem(24 bytes @ 0xE00FF000) -- Data:  03 F0 F0 FF 03 20 F0 FF 03 30 F0 FF 03 10 F0 FF ...  returns 0x00 (0001ms, 2217ms total)
T18D0 002:231 JLINK_ReadMemU32(0xE000ED00, 0x0001 Items, ...) -- CPU is running -- CPU_ReadMem(4 bytes @ 0xE000ED00) -- Data:  31 C2 1F 41  returns 0x01 (0001ms, 2218ms total)
T18D0 002:232 JLINK_SetResetType(JLINKARM_RESET_TYPE_NORMAL)  returns JLINKARM_RESET_TYPE_NORMAL (0000ms, 2219ms total)
T18D0 002:232 JLINK_Reset() >0x308 JTAG>TotalIRLen = 9, IRPrint = 0x0011 >0x30 JTAG> >0x210 JTAG> >0x80 JTAG> >0x40 JTAG> >0x40 JTAG> >0x50 JTAG> >0x40 JTAG> >0x40 JTAG> >0x40 JTAG> >0x50 JTAG> >0x40 JTAG> >0x40 JTAG> >0x30 JTAG> >0x40 JTAG> >0x50 JTAG> >0x40 JTAG> >0x38 JTAG> >0x80 JTAG> >0x40 JTAG> >0x40 JTAG> >0x50 JTAG> >0x40 JTAG> >0x40 JTAG> >0x40 JTAG> >0x50 JTAG> >0x40 JTAG> >0x40 JTAG> >0x30 JTAG> >0x40 JTAG> >0x40 JTAG> >0x40 JTAG> >0x40 JTAG> >0x40 JTAG> >0x50 JTAG> >0x40 JTAG> >0x80 JTAG>
 >0x40 JTAG> >0x30 JTAG> >0x40 JTAG> >0x40 JTAG> >0x40 JTAG> >0x40 JTAG> >0x40 JTAG> >0x50 JTAG> >0x40 JTAG> >0x80 JTAG> >0x40 JTAG> >0x30 JTAG> >0x40 JTAG> >0x50 JTAG> >0x40 JTAG> >0x40 JTAG> >0x40 JTAG> >0x30 JTAG> >0x40 JTAG> >0x50 JTAG> >0x40 JTAG>Found Cortex-M3 r1p1, Little endian. >0x50 JTAG> >0x50 JTAG> >0x40 JTAG> >0x40 JTAG> >0x30 JTAG> >0x30 JTAG> >0x50 JTAG> >0x40 JTAG> >0x80 JTAG> >0x40 JTAG> >0x30 JTAG> >0x40 JTAG> >0x50 JTAG> >0x40 JTAG> >0x40 JTAG> >0x40 JTAG> >0x30 JTAG> >0x40 JTAG>
 >0x50 JTAG> >0x40 JTAG>TPIU fitted. >0x40 JTAG> >0x40 JTAG> >0x30 JTAG> >0x40 JTAG> >0x50 JTAG> >0x40 JTAG>ETM fitted. >0x40 JTAG> >0x40 JTAG> >0x30 JTAG> >0x40 JTAG> >0x50 JTAG> >0x40 JTAG> >0x40 JTAG> >0x40 JTAG> >0x30 JTAG> >0x40 JTAG> >0x50 JTAG> >0x40 JTAG>  FPUnit: 6 code (BP) slots and 2 literal slots >0x40 JTAG> >0x40 JTAG> >0x30 JTAG> >0x40 JTAG> >0x50 JTAG> >0x40 JTAG> -- CPU is running -- CPU_WriteMem(4 bytes @ 0xE000EDF0) -- CPU is running -- CPU_WriteMem(4 bytes @ 0xE000EDFC)
 -- CPU is running -- CPU_WriteMem(4 bytes @ 0xE000ED0C) -- CPU is running -- CPU_ReadMem(4 bytes @ 0xE000EDF0) -- CPU is running -- CPU_ReadMem(4 bytes @ 0xE000EDF0) -- CPU is running -- CPU_ReadMem(4 bytes @ 0xE000EDF0) -- CPU is running -- CPU_WriteMem(4 bytes @ 0xE000EDF0) -- CPU is running -- CPU_WriteMem(4 bytes @ 0xE000EDFC) -- CPU is running -- CPU_ReadMem(4 bytes @ 0xE000EDF0) >0x90 JTAG> >0x40 JTAG> >0x30 JTAG> >0x40 JTAG> >0x50 JTAG> >0x40 JTAG> -- CPU_WriteMem(4 bytes @ 0xE000EDFC)
 -- CPU_WriteMem(4 bytes @ 0xE0001028) -- CPU_WriteMem(4 bytes @ 0xE0001038) -- CPU_WriteMem(4 bytes @ 0xE0001048) -- CPU_WriteMem(4 bytes @ 0xE0001058) (0095ms, 2219ms total)
T18D0 002:327 JLINK_ReadReg(R15)  returns 0x080003C8 (0000ms, 2314ms total)
T18D0 002:327 JLINK_ReadReg(XPSR)  returns 0x01000000 (0000ms, 2314ms total)
T18D0 002:327 JLINK_ExecCommand("Device = STM32F103ZE", ...)
                JLINK_ExecCommand("map ram 0x20000000 - 0x2000FFFF", ...)  returns 0x00 (0000ms, 0000ms total)
                JLINK_AddMirrorAreaEx(Addr = 0x00000000, Size = 0x00000000) (0000ms, 0000ms total)
                returns 0x00 (0002ms, 2314ms total)
T18D0 002:329 JLINK_Halt() >0x2F8 JTAG>TotalIRLen = 9, IRPrint = 0x0011 >0x30 JTAG> >0x210 JTAG> >0x80 JTAG> >0x40 JTAG> >0x40 JTAG> >0x50 JTAG> >0x40 JTAG> >0x40 JTAG> >0x40 JTAG> >0x50 JTAG> >0x40 JTAG> >0x40 JTAG> >0x30 JTAG> >0x40 JTAG> >0x50 JTAG> >0x40 JTAG>  returns 0x00 (0013ms, 2316ms total)
T18D0 002:342 JLINK_IsHalted()  returns TRUE (0001ms, 2329ms total)
T18D0 002:343 JLINK_ReadMemU32(0xE000EDF0, 0x0001 Items, ...) >0x38 JTAG> >0x80 JTAG> >0x40 JTAG> >0x40 JTAG> >0x50 JTAG> >0x40 JTAG> >0x40 JTAG> >0x40 JTAG> >0x50 JTAG> >0x40 JTAG> >0x40 JTAG> >0x30 JTAG> >0x40 JTAG> >0x40 JTAG> >0x40 JTAG> >0x40 JTAG> >0x40 JTAG> >0x50 JTAG> >0x40 JTAG> >0x80 JTAG> >0x40 JTAG> >0x30 JTAG> >0x40 JTAG> >0x40 JTAG> >0x40 JTAG> >0x40 JTAG> >0x40 JTAG> >0x50 JTAG> >0x40 JTAG> >0x80 JTAG> >0x40 JTAG> >0x30 JTAG> >0x40 JTAG> >0x50 JTAG> >0x40 JTAG> >0x40 JTAG> >0x40 JTAG>
 >0x30 JTAG> >0x40 JTAG> >0x50 JTAG> >0x40 JTAG>Found Cortex-M3 r1p1, Little endian. >0x50 JTAG> >0x50 JTAG> >0x40 JTAG> >0x40 JTAG> >0x30 JTAG> >0x30 JTAG> >0x50 JTAG> >0x40 JTAG> >0x80 JTAG> >0x40 JTAG> >0x30 JTAG> >0x40 JTAG> >0x50 JTAG> >0x40 JTAG> >0x40 JTAG> >0x40 JTAG> >0x30 JTAG> >0x40 JTAG> >0x50 JTAG> >0x40 JTAG>TPIU fitted. >0x40 JTAG> >0x40 JTAG> >0x30 JTAG> >0x40 JTAG> >0x50 JTAG> >0x40 JTAG>ETM fitted. >0x40 JTAG> >0x40 JTAG> >0x30 JTAG> >0x40 JTAG> >0x50 JTAG> >0x40 JTAG> >0x40 JTAG>
 >0x40 JTAG> >0x30 JTAG> >0x40 JTAG> >0x50 JTAG> >0x40 JTAG>  FPUnit: 6 code (BP) slots and 2 literal slots >0x40 JTAG> >0x40 JTAG> >0x30 JTAG> >0x40 JTAG> >0x50 JTAG> >0x40 JTAG> -- CPU_ReadMem(4 bytes @ 0xE000EDF0) -- Data:  03 00 03 00  returns 0x01 (0062ms, 2329ms total)
T18D0 002:405 JLINK_WriteU32(0xE000EDF0, 0xA05F0003) -- CPU_WriteMem(4 bytes @ 0xE000EDF0)  returns 0x00 (0001ms, 2391ms total)
T18D0 002:406 JLINK_WriteU32(0xE000EDFC, 0x01000000) -- CPU_WriteMem(4 bytes @ 0xE000EDFC)  returns 0x00 (0001ms, 2392ms total)
T18D0 002:407 JLINK_ReadMemU32(0xE0002000, 0x0001 Items, ...) -- CPU_ReadMem(4 bytes @ 0xE0002000) -- Data:  60 02 00 00  returns 0x01 (0001ms, 2393ms total)
T18D0 002:408 JLINK_ReadMemU32(0xE0001000, 0x0001 Items, ...) -- CPU_ReadMem(4 bytes @ 0xE0001000) -- Data:  01 00 00 40  returns 0x01 (0001ms, 2394ms total)
T18D0 002:409 JLINK_GetHWStatus(...)  returns 0x00 (0001ms, 2395ms total)
T18D0 002:410 JLINK_GetNumBPUnits(Type = 0xFFFFFF00)  returns 0x06 (0000ms, 2396ms total)
T18D0 002:410 JLINK_GetNumBPUnits(Type = 0xF0)  returns 0x800 (0000ms, 2396ms total)
T18D0 002:410 JLINK_GetNumWPUnits()  returns 0x04 (0000ms, 2396ms total)
T18D0 002:410 JLINK_GetSpeed()  returns 0x7D0 (0001ms, 2396ms total)
T18D0 002:411 JLINK_ReadMemU32(0xE000E004, 0x0001 Items, ...) -- CPU_ReadMem(4 bytes @ 0xE000E004) -- Data:  01 00 00 00  returns 0x01 (0001ms, 2397ms total)
T18D0 002:412 JLINK_WriteMem(0xE0001000, 0x001C Bytes, ...) -- Data:  01 00 00 00 00 00 00 00 00 00 00 00 00 00 00 00 ... -- CPU_WriteMem(28 bytes @ 0xE0001000)  returns 0x1C (0001ms, 2398ms total)
T18D0 002:413 JLINK_ReadMem (0xE0001000, 0x001C Bytes, ...) -- CPU_ReadMem(28 bytes @ 0xE0001000) -- Data:  01 00 00 40 00 00 00 00 00 00 00 00 00 00 00 00 ...  returns 0x00 (0001ms, 2399ms total)
T18D0 002:414 JLINK_ReadReg(R15)  returns 0x080003C8 (0000ms, 2400ms total)
T18D0 002:414 JLINK_ReadReg(XPSR)  returns 0x01000000 (0000ms, 2400ms total)
T18D0 003:140 JLINK_SetResetType(JLINKARM_RESET_TYPE_NORMAL)  returns JLINKARM_RESET_TYPE_NORMAL (0000ms, 2400ms total)
T18D0 003:140 JLINK_Reset() >0x308 JTAG>TotalIRLen = 9, IRPrint = 0x0011 >0x30 JTAG> >0x210 JTAG> >0x80 JTAG> >0x40 JTAG> >0x40 JTAG> >0x50 JTAG> >0x40 JTAG> >0x40 JTAG> >0x40 JTAG> >0x50 JTAG> >0x40 JTAG> >0x40 JTAG> >0x30 JTAG> >0x40 JTAG> >0x50 JTAG> >0x40 JTAG> >0x38 JTAG> >0x80 JTAG> >0x40 JTAG> >0x40 JTAG> >0x50 JTAG> >0x40 JTAG> >0x40 JTAG> >0x40 JTAG> >0x50 JTAG> >0x40 JTAG> >0x40 JTAG> >0x30 JTAG> >0x40 JTAG> >0x40 JTAG> >0x40 JTAG> >0x40 JTAG> >0x40 JTAG> >0x50 JTAG> >0x40 JTAG> >0x80 JTAG>
 >0x40 JTAG> >0x30 JTAG> >0x40 JTAG> >0x40 JTAG> >0x40 JTAG> >0x40 JTAG> >0x40 JTAG> >0x50 JTAG> >0x40 JTAG> >0x80 JTAG> >0x40 JTAG> >0x30 JTAG> >0x40 JTAG> >0x50 JTAG> >0x40 JTAG> >0x40 JTAG> >0x40 JTAG> >0x30 JTAG> >0x40 JTAG> >0x50 JTAG> >0x40 JTAG>Found Cortex-M3 r1p1, Little endian. >0x50 JTAG> >0x50 JTAG> >0x40 JTAG> >0x40 JTAG> >0x30 JTAG> >0x30 JTAG> >0x50 JTAG> >0x40 JTAG> >0x80 JTAG> >0x40 JTAG> >0x30 JTAG> >0x40 JTAG> >0x50 JTAG> >0x40 JTAG> >0x40 JTAG> >0x40 JTAG> >0x30 JTAG> >0x40 JTAG>
 >0x50 JTAG> >0x40 JTAG>TPIU fitted. >0x40 JTAG> >0x40 JTAG> >0x30 JTAG> >0x40 JTAG> >0x50 JTAG> >0x40 JTAG>ETM fitted. >0x40 JTAG> >0x40 JTAG> >0x30 JTAG> >0x40 JTAG> >0x50 JTAG> >0x40 JTAG> >0x40 JTAG> >0x40 JTAG> >0x30 JTAG> >0x40 JTAG> >0x50 JTAG> >0x40 JTAG>  FPUnit: 6 code (BP) slots and 2 literal slots >0x40 JTAG> >0x40 JTAG> >0x30 JTAG> >0x40 JTAG> >0x50 JTAG> >0x40 JTAG> -- CPU_WriteMem(4 bytes @ 0xE000EDF0) -- CPU_WriteMem(4 bytes @ 0xE000EDFC) -- CPU_WriteMem(4 bytes @ 0xE000ED0C)
 -- CPU_ReadMem(4 bytes @ 0xE000EDF0) -- CPU_ReadMem(4 bytes @ 0xE000EDF0) -- CPU_ReadMem(4 bytes @ 0xE000EDF0) -- CPU_WriteMem(4 bytes @ 0xE000EDF0) -- CPU_WriteMem(4 bytes @ 0xE000EDFC) -- CPU is running -- CPU_ReadMem(4 bytes @ 0xE000EDF0) >0x90 JTAG> >0x40 JTAG> >0x30 JTAG> >0x40 JTAG> >0x50 JTAG> >0x40 JTAG> -- CPU_WriteMem(4 bytes @ 0xE000EDFC) -- CPU_WriteMem(4 bytes @ 0xE0001028) -- CPU_WriteMem(4 bytes @ 0xE0001038) -- CPU_WriteMem(4 bytes @ 0xE0001048) -- CPU_WriteMem(4 bytes @ 0xE0001058)
 (0087ms, 2400ms total)
T18D0 003:228 JLINK_ReadReg(R15)  returns 0x080003C8 (0000ms, 2487ms total)
T18D0 003:228 JLINK_ReadReg(XPSR)  returns 0x01000000 (0000ms, 2487ms total)
T18D0 003:228 JLINK_ReadReg(R0)  returns 0x00000000 (0000ms, 2487ms total)
T18D0 003:228 JLINK_ReadReg(R1)  returns 0x00000003 (0000ms, 2487ms total)
T18D0 003:228 JLINK_ReadReg(R2)  returns 0x40022000 (0000ms, 2487ms total)
T18D0 003:228 JLINK_ReadReg(R3)  returns 0x04C11DB7 (0000ms, 2487ms total)
T18D0 003:228 JLINK_ReadReg(R4)  returns 0x00000000 (0000ms, 2487ms total)
T18D0 003:228 JLINK_ReadReg(R5)  returns 0x00000000 (0000ms, 2487ms total)
T18D0 003:228 JLINK_ReadReg(R6)  returns 0x00000000 (0000ms, 2487ms total)
T18D0 003:228 JLINK_ReadReg(R7)  returns 0x00000000 (0000ms, 2487ms total)
T18D0 003:228 JLINK_ReadReg(R8)  returns 0x00000000 (0000ms, 2487ms total)
T18D0 003:228 JLINK_ReadReg(R9)  returns 0x20000160 (0000ms, 2487ms total)
T18D0 003:228 JLINK_ReadReg(R10)  returns 0x00000000 (0000ms, 2487ms total)
T18D0 003:228 JLINK_ReadReg(R11)  returns 0x00000000 (0000ms, 2487ms total)
T18D0 003:228 JLINK_ReadReg(R12)  returns 0x00000000 (0000ms, 2487ms total)
T18D0 003:228 JLINK_ReadReg(R14)  returns 0xFFFFFFFF (0000ms, 2487ms total)
T18D0 003:228 JLINK_ReadReg(R15)  returns 0x080003C8 (0000ms, 2487ms total)
T18D0 003:228 JLINK_ReadReg(XPSR)  returns 0x01000000 (0000ms, 2487ms total)
T18D0 003:228 JLINK_ReadReg(CFBP)  returns 0x00000000 (0000ms, 2487ms total)
T18D0 003:228 JLINK_ReadReg(MSP)  returns 0x20002A98 (0000ms, 2487ms total)
T18D0 003:228 JLINK_WriteReg(R0, 0x00000000)  returns 0x00 (0000ms, 2487ms total)
T18D0 003:228 JLINK_WriteReg(R1, 0x00000003)  returns 0x00 (0000ms, 2487ms total)
T18D0 003:228 JLINK_WriteReg(R2, 0x40022000)  returns 0x00 (0000ms, 2487ms total)
T18D0 003:228 JLINK_WriteReg(R3, 0x04C11DB7)  returns 0x00 (0000ms, 2487ms total)
T18D0 003:228 JLINK_WriteReg(R4, 0x00000000)  returns 0x00 (0000ms, 2487ms total)
T18D0 003:228 JLINK_WriteReg(R5, 0x00000000)  returns 0x00 (0000ms, 2487ms total)
T18D0 003:228 JLINK_WriteReg(R6, 0x00000000)  returns 0x00 (0000ms, 2487ms total)
T18D0 003:228 JLINK_WriteReg(R7, 0x00000000)  returns 0x00 (0000ms, 2487ms total)
T18D0 003:228 JLINK_WriteReg(R8, 0x00000000)  returns 0x00 (0000ms, 2487ms total)
T18D0 003:228 JLINK_WriteReg(R9, 0x20000160)  returns 0x00 (0000ms, 2487ms total)
T18D0 003:228 JLINK_WriteReg(R10, 0x00000000)  returns 0x00 (0000ms, 2487ms total)
T18D0 003:229 JLINK_WriteReg(R11, 0x00000000)  returns 0x00 (0000ms, 2487ms total)
T18D0 003:229 JLINK_WriteReg(R12, 0x00000000)  returns 0x00 (0000ms, 2487ms total)
T18D0 003:229 JLINK_WriteReg(R13, 0x20002A98)  returns 0x00 (0000ms, 2487ms total)
T18D0 003:229 JLINK_WriteReg(R14, 0xFFFFFFFF)  returns 0x00 (0000ms, 2487ms total)
T18D0 003:229 JLINK_WriteReg(R15, 0x080003C8)  returns 0x00 (0000ms, 2487ms total)
T18D0 003:229 JLINK_WriteReg(XPSR, 0x01000000)  returns 0x00 (0000ms, 2487ms total)
T18D0 003:229 JLINK_WriteReg(MSP, 0x20002A98)  returns 0x00 (0000ms, 2487ms total)
T18D0 003:229 JLINK_WriteReg(PSP, 0x00000000)  returns 0x00 (0000ms, 2487ms total)
T18D0 003:229 JLINK_WriteReg(CFBP, 0x00000000)  returns 0x00 (0000ms, 2487ms total)
T18D0 003:229 JLINK_ReadMem (0x080003C8, 0x003C Bytes, ...) -- CPU_ReadMem(128 bytes @ 0x080003C0) -- Updating C cache (128 bytes @ 0x080003C0) -- Read from C cache (60 bytes @ 0x080003C8) -- Data:  09 48 80 47 09 48 00 47 FE E7 FE E7 FE E7 FE E7 ...  returns 0x00 (0002ms, 2487ms total)
T18D0 003:886 JLINK_ReadMem (0x00000000, 0x014A Bytes, ...)
                JLINK_ReadMemHW(0x00000000, 0x0004 Bytes, ...) -- CPU_ReadMem(4 bytes @ 0x00000000) -- Data:  98 2A 00 20  returns 0x00 (0001ms, 0000ms total)
                JLINK_ReadMemHW(0x08000000, 0x0004 Bytes, ...) -- CPU_ReadMem(4 bytes @ 0x08000000) -- Data:  98 2A 00 20  returns 0x00 (0001ms, 0001ms total)
                JLINK_WriteMemHW(0x00000000, 0x0004 Bytes, ...) -- Data:  09 00 01 00 -- CPU_WriteMem(4 bytes @ 0x00000000)  returns 0x04 (0001ms, 0002ms total)
                JLINK_ReadMemHW(0x00000000, 0x0004 Bytes, ...) -- CPU_ReadMem(4 bytes @ 0x00000000) -- Data:  98 2A 00 20  returns 0x00 (0001ms, 0003ms total)
               -- MA0 is in flash -- Unmirror addr 0x00000000 -- CPU_ReadMem(384 bytes @ 0x08000000) -- Updating C cache (384 bytes @ 0x08000000) -- Read from C cache (330 bytes @ 0x08000000) -- Data:  98 2A 00 20 C9 03 00 08 D1 03 00 08 D3 03 00 08 ...  returns 0x00 (0007ms, 2489ms total)
T10B4 004:294 JLINK_SetBPEx(Addr = 0x080005EE, Type = 0xFFFFFFF2)  returns 0x00000001 (0001ms, 2496ms total)
T10B4 004:295 JLINK_Go() -- CPU_WriteMem(4 bytes @ 0xE0002000) -- CPU_WriteMem(4 bytes @ 0xE0002008) -- CPU_WriteMem(4 bytes @ 0xE000200C) -- CPU_WriteMem(4 bytes @ 0xE0002010) -- CPU_WriteMem(4 bytes @ 0xE0002014) -- CPU_WriteMem(4 bytes @ 0xE0002018) -- CPU_WriteMem(4 bytes @ 0xE000201C) -- Invalidate MA0 status (0007ms, 2497ms total)
T10B4 004:402 JLINK_IsHalted()  returns TRUE (0008ms, 2504ms total)
T10B4 004:410 JLINK_Halt()  returns 0x00 (0000ms, 2504ms total)
T10B4 004:410 JLINK_IsHalted()  returns TRUE (0000ms, 2504ms total)
T10B4 004:410 JLINK_IsHalted()  returns TRUE (0000ms, 2504ms total)
T10B4 004:410 JLINK_IsHalted()  returns TRUE (0000ms, 2504ms total)
T10B4 004:410 JLINK_ReadReg(R15)  returns 0x080005EE (0000ms, 2504ms total)
T10B4 004:410 JLINK_ReadReg(XPSR)  returns 0x21000000 (0000ms, 2504ms total)
T10B4 004:410 JLINK_ClrBPEx(BPHandle = 0x00000001)  returns 0x00 (0000ms, 2504ms total)
T10B4 004:410 JLINK_ReadMemU32(0xE000ED30, 0x0001 Items, ...) -- CPU_ReadMem(4 bytes @ 0xE000ED30) -- Data:  03 00 00 00  returns 0x01 (0001ms, 2504ms total)
T10B4 004:411 JLINK_ReadMemU32(0xE0001028, 0x0001 Items, ...) -- CPU_ReadMem(4 bytes @ 0xE0001028) -- Data:  00 00 00 00  returns 0x01 (0002ms, 2505ms total)
T10B4 004:413 JLINK_ReadMemU32(0xE0001038, 0x0001 Items, ...) -- CPU_ReadMem(4 bytes @ 0xE0001038) -- Data:  00 02 00 00  returns 0x01 (0001ms, 2507ms total)
T10B4 004:414 JLINK_ReadMemU32(0xE0001048, 0x0001 Items, ...) -- CPU_ReadMem(4 bytes @ 0xE0001048) -- Data:  00 00 00 00  returns 0x01 (0002ms, 2508ms total)
T10B4 004:416 JLINK_ReadMemU32(0xE0001058, 0x0001 Items, ...) -- CPU_ReadMem(4 bytes @ 0xE0001058) -- Data:  00 00 00 00  returns 0x01 (0001ms, 2510ms total)
T10B4 004:417 JLINK_ReadReg(R0)  returns 0x20002498 (0000ms, 2511ms total)
T10B4 004:417 JLINK_ReadReg(R1)  returns 0x20002698 (0000ms, 2511ms total)
T10B4 004:417 JLINK_ReadReg(R2)  returns 0x20002698 (0000ms, 2511ms total)
T10B4 004:417 JLINK_ReadReg(R3)  returns 0x20002698 (0000ms, 2511ms total)
T10B4 004:417 JLINK_ReadReg(R4)  returns 0x00000000 (0000ms, 2511ms total)
T10B4 004:417 JLINK_ReadReg(R5)  returns 0x20002438 (0000ms, 2511ms total)
T10B4 004:417 JLINK_ReadReg(R6)  returns 0x00000000 (0000ms, 2511ms total)
T10B4 004:417 JLINK_ReadReg(R7)  returns 0x00000000 (0000ms, 2511ms total)
T10B4 004:417 JLINK_ReadReg(R8)  returns 0x00000000 (0000ms, 2511ms total)
T10B4 004:417 JLINK_ReadReg(R9)  returns 0x20000160 (0000ms, 2511ms total)
T10B4 004:417 JLINK_ReadReg(R10)  returns 0x08003C10 (0000ms, 2511ms total)
T10B4 004:417 JLINK_ReadReg(R11)  returns 0x00000000 (0000ms, 2511ms total)
T10B4 004:417 JLINK_ReadReg(R12)  returns 0x20002478 (0000ms, 2511ms total)
T10B4 004:417 JLINK_ReadReg(R14)  returns 0x080001BF (0000ms, 2511ms total)
T10B4 004:417 JLINK_ReadReg(R15)  returns 0x080005EE (0000ms, 2511ms total)
T10B4 004:417 JLINK_ReadReg(XPSR)  returns 0x21000000 (0000ms, 2511ms total)
T10B4 004:417 JLINK_ReadReg(CFBP)  returns 0x00000000 (0001ms, 2511ms total)
T10B4 004:418 JLINK_ReadReg(MSP)  returns 0x20002A98 (0000ms, 2512ms total)
T18D0 004:418 JLINK_WriteReg(R0, 0x20002498)  returns 0x00 (0000ms, 2512ms total)
T18D0 004:418 JLINK_WriteReg(R1, 0x20002698)  returns 0x00 (0000ms, 2512ms total)
T18D0 004:418 JLINK_WriteReg(R2, 0x20002698)  returns 0x00 (0000ms, 2512ms total)
T18D0 004:418 JLINK_WriteReg(R3, 0x20002698)  returns 0x00 (0000ms, 2512ms total)
T18D0 004:418 JLINK_WriteReg(R4, 0x00000000)  returns 0x00 (0000ms, 2512ms total)
T18D0 004:418 JLINK_WriteReg(R5, 0x20002438)  returns 0x00 (0000ms, 2512ms total)
T18D0 004:418 JLINK_WriteReg(R6, 0x00000000)  returns 0x00 (0000ms, 2512ms total)
T18D0 004:418 JLINK_WriteReg(R7, 0x00000000)  returns 0x00 (0000ms, 2512ms total)
T18D0 004:418 JLINK_WriteReg(R8, 0x00000000)  returns 0x00 (0000ms, 2512ms total)
T18D0 004:418 JLINK_WriteReg(R9, 0x20000160)  returns 0x00 (0000ms, 2512ms total)
T18D0 004:418 JLINK_WriteReg(R10, 0x08003C10)  returns 0x00 (0000ms, 2512ms total)
T18D0 004:418 JLINK_WriteReg(R11, 0x00000000)  returns 0x00 (0000ms, 2512ms total)
T18D0 004:418 JLINK_WriteReg(R12, 0x20002478)  returns 0x00 (0000ms, 2512ms total)
T18D0 004:418 JLINK_WriteReg(R13, 0x20002A98)  returns 0x00 (0000ms, 2512ms total)
T18D0 004:418 JLINK_WriteReg(R14, 0x080001BF)  returns 0x00 (0000ms, 2512ms total)
T18D0 004:418 JLINK_WriteReg(R15, 0x080005EE)  returns 0x00 (0000ms, 2512ms total)
T18D0 004:418 JLINK_WriteReg(XPSR, 0x21000000)  returns 0x00 (0000ms, 2512ms total)
T18D0 004:418 JLINK_WriteReg(MSP, 0x20002A98)  returns 0x00 (0000ms, 2512ms total)
T18D0 004:418 JLINK_WriteReg(PSP, 0x00000000)  returns 0x00 (0000ms, 2512ms total)
T18D0 004:418 JLINK_WriteReg(CFBP, 0x00000000)  returns 0x00 (0000ms, 2512ms total)
T18D0 004:422 JLINK_ReadMem (0x080005EE, 0x0002 Bytes, ...) -- CPU_ReadMem(64 bytes @ 0x080005C0) -- Updating C cache (64 bytes @ 0x080005C0) -- Read from C cache (2 bytes @ 0x080005EE) -- Data:  00 B5  returns 0x00 (0001ms, 2512ms total)
T18D0 004:423 JLINK_ReadMem (0x080005F0, 0x003C Bytes, ...) -- CPU_ReadMem(64 bytes @ 0x08000600) -- Updating C cache (64 bytes @ 0x08000600) -- Read from C cache (60 bytes @ 0x080005F0) -- Data:  8B B0 0A A8 00 F0 6A FA FF F7 2E FF 00 F0 58 F9 ...  returns 0x00 (0002ms, 2513ms total)
T10B4 005:358 JLINK_Go() -- CPU_WriteMem(4 bytes @ 0xE0002008) -- CPU_WriteMem(4 bytes @ 0xE000200C) -- CPU_WriteMem(4 bytes @ 0xE0002010) -- CPU_WriteMem(4 bytes @ 0xE0002014) -- CPU_WriteMem(4 bytes @ 0xE0002018) -- CPU_WriteMem(4 bytes @ 0xE000201C) (0009ms, 2515ms total)
T10B4 005:467 JLINK_IsHalted()  returns FALSE (0001ms, 2524ms total)
T10B4 005:568 JLINK_IsHalted()  returns FALSE (0001ms, 2524ms total)
T10B4 005:669 JLINK_IsHalted()  returns FALSE (0001ms, 2524ms total)
T10B4 005:770 JLINK_IsHalted()  returns FALSE (0008ms, 2524ms total)
T10B4 005:878 JLINK_IsHalted()  returns FALSE (0000ms, 2524ms total)
T10B4 005:978 JLINK_IsHalted()  returns FALSE (0000ms, 2524ms total)
T10B4 006:078 JLINK_IsHalted()  returns FALSE (0000ms, 2524ms total)
T10B4 006:178 JLINK_IsHalted()  returns FALSE (0000ms, 2524ms total)
T10B4 006:278 JLINK_IsHalted()  returns FALSE (0000ms, 2524ms total)
T10B4 006:378 JLINK_IsHalted()  returns FALSE (0002ms, 2524ms total)
T10B4 006:480 JLINK_IsHalted()  returns FALSE (0001ms, 2524ms total)
T10B4 006:581 JLINK_IsHalted()  returns FALSE (0001ms, 2524ms total)
T10B4 006:682 JLINK_IsHalted()  returns FALSE (0001ms, 2524ms total)
T10B4 006:783 JLINK_IsHalted()  returns FALSE (0001ms, 2524ms total)
T10B4 006:884 JLINK_IsHalted()  returns FALSE (0002ms, 2524ms total)
T10B4 006:986 JLINK_IsHalted()  returns FALSE (0000ms, 2524ms total)
T10B4 007:086 JLINK_IsHalted()  returns FALSE (0000ms, 2524ms total)
T10B4 007:186 JLINK_IsHalted()  returns FALSE (0001ms, 2524ms total)
T10B4 007:287 JLINK_IsHalted()  returns FALSE (0001ms, 2524ms total)
T10B4 007:388 JLINK_IsHalted()  returns FALSE (0001ms, 2524ms total)
T10B4 007:489 JLINK_IsHalted()  returns FALSE (0000ms, 2524ms total)
T10B4 007:589 JLINK_IsHalted()  returns FALSE (0001ms, 2524ms total)
T10B4 007:690 JLINK_IsHalted()  returns FALSE (0001ms, 2524ms total)
T10B4 007:791 JLINK_IsHalted()  returns FALSE (0001ms, 2524ms total)
T10B4 007:892 JLINK_IsHalted()  returns FALSE (0001ms, 2524ms total)
T10B4 007:993 JLINK_IsHalted()  returns FALSE (0001ms, 2524ms total)
T10B4 008:094 JLINK_IsHalted()  returns FALSE (0001ms, 2524ms total)
T10B4 008:195 JLINK_IsHalted()  returns FALSE (0000ms, 2524ms total)
T10B4 008:295 JLINK_IsHalted()  returns FALSE (0000ms, 2524ms total)
T10B4 008:395 JLINK_IsHalted()  returns FALSE (0001ms, 2524ms total)
T10B4 008:496 JLINK_IsHalted()  returns FALSE (0000ms, 2524ms total)
T10B4 008:596 JLINK_IsHalted()  returns FALSE (0001ms, 2524ms total)
